CITIFILE A.01.01
!Agilent Technologies,N5242A,MY48420860,A.09.90.10
!Agilent N5242A: A.09.90.10
!Date: Thursday, April 03, 2014 16:31:40
NAME CH1_DATA
VAR Freq MAG 1601
DATA S[1,1] RI
VAR_LIST_BEGIN
3000000000
3001875000
3003750000
3005625000
3007500000
3009375000
3011250000
3013125000
3015000000
3016875000
3018750000
3020625000
3022500000
3024375000
3026250000
3028125000
3030000000
3031875000
3033750000
3035625000
3037500000
3039375000
3041250000
3043125000
3045000000
3046875000
3048750000
3050625000
3052500000
3054375000
3056250000
3058125000
3060000000
3061875000
3063750000
3065625000
3067500000
3069375000
3071250000
3073125000
3075000000
3076875000
3078750000
3080625000
3082500000
3084375000
3086250000
3088125000
3090000000
3091875000
3093750000
3095625000
3097500000
3099375000
3101250000
3103125000
3105000000
3106875000
3108750000
3110625000
3112500000
3114375000
3116250000
3118125000
3120000000
3121875000
3123750000
3125625000
3127500000
3129375000
3131250000
3133125000
3135000000
3136875000
3138750000
3140625000
3142500000
3144375000
3146250000
3148125000
3150000000
3151875000
3153750000
3155625000
3157500000
3159375000
3161250000
3163125000
3165000000
3166875000
3168750000
3170625000
3172500000
3174375000
3176250000
3178125000
3180000000
3181875000
3183750000
3185625000
3187500000
3189375000
3191250000
3193125000
3195000000
3196875000
3198750000
3200625000
3202500000
3204375000
3206250000
3208125000
3210000000
3211875000
3213750000
3215625000
3217500000
3219375000
3221250000
3223125000
3225000000
3226875000
3228750000
3230625000
3232500000
3234375000
3236250000
3238125000
3240000000
3241875000
3243750000
3245625000
3247500000
3249375000
3251250000
3253125000
3255000000
3256875000
3258750000
3260625000
3262500000
3264375000
3266250000
3268125000
3270000000
3271875000
3273750000
3275625000
3277500000
3279375000
3281250000
3283125000
3285000000
3286875000
3288750000
3290625000
3292500000
3294375000
3296250000
3298125000
3300000000
3301875000
3303750000
3305625000
3307500000
3309375000
3311250000
3313125000
3315000000
3316875000
3318750000
3320625000
3322500000
3324375000
3326250000
3328125000
3330000000
3331875000
3333750000
3335625000
3337500000
3339375000
3341250000
3343125000
3345000000
3346875000
3348750000
3350625000
3352500000
3354375000
3356250000
3358125000
3360000000
3361875000
3363750000
3365625000
3367500000
3369375000
3371250000
3373125000
3375000000
3376875000
3378750000
3380625000
3382500000
3384375000
3386250000
3388125000
3390000000
3391875000
3393750000
3395625000
3397500000
3399375000
3401250000
3403125000
3405000000
3406875000
3408750000
3410625000
3412500000
3414375000
3416250000
3418125000
3420000000
3421875000
3423750000
3425625000
3427500000
3429375000
3431250000
3433125000
3435000000
3436875000
3438750000
3440625000
3442500000
3444375000
3446250000
3448125000
3450000000
3451875000
3453750000
3455625000
3457500000
3459375000
3461250000
3463125000
3465000000
3466875000
3468750000
3470625000
3472500000
3474375000
3476250000
3478125000
3480000000
3481875000
3483750000
3485625000
3487500000
3489375000
3491250000
3493125000
3495000000
3496875000
3498750000
3500625000
3502500000
3504375000
3506250000
3508125000
3510000000
3511875000
3513750000
3515625000
3517500000
3519375000
3521250000
3523125000
3525000000
3526875000
3528750000
3530625000
3532500000
3534375000
3536250000
3538125000
3540000000
3541875000
3543750000
3545625000
3547500000
3549375000
3551250000
3553125000
3555000000
3556875000
3558750000
3560625000
3562500000
3564375000
3566250000
3568125000
3570000000
3571875000
3573750000
3575625000
3577500000
3579375000
3581250000
3583125000
3585000000
3586875000
3588750000
3590625000
3592500000
3594375000
3596250000
3598125000
3600000000
3601875000
3603750000
3605625000
3607500000
3609375000
3611250000
3613125000
3615000000
3616875000
3618750000
3620625000
3622500000
3624375000
3626250000
3628125000
3630000000
3631875000
3633750000
3635625000
3637500000
3639375000
3641250000
3643125000
3645000000
3646875000
3648750000
3650625000
3652500000
3654375000
3656250000
3658125000
3660000000
3661875000
3663750000
3665625000
3667500000
3669375000
3671250000
3673125000
3675000000
3676875000
3678750000
3680625000
3682500000
3684375000
3686250000
3688125000
3690000000
3691875000
3693750000
3695625000
3697500000
3699375000
3701250000
3703125000
3705000000
3706875000
3708750000
3710625000
3712500000
3714375000
3716250000
3718125000
3720000000
3721875000
3723750000
3725625000
3727500000
3729375000
3731250000
3733125000
3735000000
3736875000
3738750000
3740625000
3742500000
3744375000
3746250000
3748125000
3750000000
3751875000
3753750000
3755625000
3757500000
3759375000
3761250000
3763125000
3765000000
3766875000
3768750000
3770625000
3772500000
3774375000
3776250000
3778125000
3780000000
3781875000
3783750000
3785625000
3787500000
3789375000
3791250000
3793125000
3795000000
3796875000
3798750000
3800625000
3802500000
3804375000
3806250000
3808125000
3810000000
3811875000
3813750000
3815625000
3817500000
3819375000
3821250000
3823125000
3825000000
3826875000
3828750000
3830625000
3832500000
3834375000
3836250000
3838125000
3840000000
3841875000
3843750000
3845625000
3847500000
3849375000
3851250000
3853125000
3855000000
3856875000
3858750000
3860625000
3862500000
3864375000
3866250000
3868125000
3870000000
3871875000
3873750000
3875625000
3877500000
3879375000
3881250000
3883125000
3885000000
3886875000
3888750000
3890625000
3892500000
3894375000
3896250000
3898125000
3900000000
3901875000
3903750000
3905625000
3907500000
3909375000
3911250000
3913125000
3915000000
3916875000
3918750000
3920625000
3922500000
3924375000
3926250000
3928125000
3930000000
3931875000
3933750000
3935625000
3937500000
3939375000
3941250000
3943125000
3945000000
3946875000
3948750000
3950625000
3952500000
3954375000
3956250000
3958125000
3960000000
3961875000
3963750000
3965625000
3967500000
3969375000
3971250000
3973125000
3975000000
3976875000
3978750000
3980625000
3982500000
3984375000
3986250000
3988125000
3990000000
3991875000
3993750000
3995625000
3997500000
3999375000
4001250000
4003125000
4005000000
4006875000
4008750000
4010625000
4012500000
4014375000
4016250000
4018125000
4020000000
4021875000
4023750000
4025625000
4027500000
4029375000
4031250000
4033125000
4035000000
4036875000
4038750000
4040625000
4042500000
4044375000
4046250000
4048125000
4050000000
4051875000
4053750000
4055625000
4057500000
4059375000
4061250000
4063125000
4065000000
4066875000
4068750000
4070625000
4072500000
4074375000
4076250000
4078125000
4080000000
4081875000
4083750000
4085625000
4087500000
4089375000
4091250000
4093125000
4095000000
4096875000
4098750000
4100625000
4102500000
4104375000
4106250000
4108125000
4110000000
4111875000
4113750000
4115625000
4117500000
4119375000
4121250000
4123125000
4125000000
4126875000
4128750000
4130625000
4132500000
4134375000
4136250000
4138125000
4140000000
4141875000
4143750000
4145625000
4147500000
4149375000
4151250000
4153125000
4155000000
4156875000
4158750000
4160625000
4162500000
4164375000
4166250000
4168125000
4170000000
4171875000
4173750000
4175625000
4177500000
4179375000
4181250000
4183125000
4185000000
4186875000
4188750000
4190625000
4192500000
4194375000
4196250000
4198125000
4200000000
4201875000
4203750000
4205625000
4207500000
4209375000
4211250000
4213125000
4215000000
4216875000
4218750000
4220625000
4222500000
4224375000
4226250000
4228125000
4230000000
4231875000
4233750000
4235625000
4237500000
4239375000
4241250000
4243125000
4245000000
4246875000
4248750000
4250625000
4252500000
4254375000
4256250000
4258125000
4260000000
4261875000
4263750000
4265625000
4267500000
4269375000
4271250000
4273125000
4275000000
4276875000
4278750000
4280625000
4282500000
4284375000
4286250000
4288125000
4290000000
4291875000
4293750000
4295625000
4297500000
4299375000
4301250000
4303125000
4305000000
4306875000
4308750000
4310625000
4312500000
4314375000
4316250000
4318125000
4320000000
4321875000
4323750000
4325625000
4327500000
4329375000
4331250000
4333125000
4335000000
4336875000
4338750000
4340625000
4342500000
4344375000
4346250000
4348125000
4350000000
4351875000
4353750000
4355625000
4357500000
4359375000
4361250000
4363125000
4365000000
4366875000
4368750000
4370625000
4372500000
4374375000
4376250000
4378125000
4380000000
4381875000
4383750000
4385625000
4387500000
4389375000
4391250000
4393125000
4395000000
4396875000
4398750000
4400625000
4402500000
4404375000
4406250000
4408125000
4410000000
4411875000
4413750000
4415625000
4417500000
4419375000
4421250000
4423125000
4425000000
4426875000
4428750000
4430625000
4432500000
4434375000
4436250000
4438125000
4440000000
4441875000
4443750000
4445625000
4447500000
4449375000
4451250000
4453125000
4455000000
4456875000
4458750000
4460625000
4462500000
4464375000
4466250000
4468125000
4470000000
4471875000
4473750000
4475625000
4477500000
4479375000
4481250000
4483125000
4485000000
4486875000
4488750000
4490625000
4492500000
4494375000
4496250000
4498125000
4500000000
4501875000
4503750000
4505625000
4507500000
4509375000
4511250000
4513125000
4515000000
4516875000
4518750000
4520625000
4522500000
4524375000
4526250000
4528125000
4530000000
4531875000
4533750000
4535625000
4537500000
4539375000
4541250000
4543125000
4545000000
4546875000
4548750000
4550625000
4552500000
4554375000
4556250000
4558125000
4560000000
4561875000
4563750000
4565625000
4567500000
4569375000
4571250000
4573125000
4575000000
4576875000
4578750000
4580625000
4582500000
4584375000
4586250000
4588125000
4590000000
4591875000
4593750000
4595625000
4597500000
4599375000
4601250000
4603125000
4605000000
4606875000
4608750000
4610625000
4612500000
4614375000
4616250000
4618125000
4620000000
4621875000
4623750000
4625625000
4627500000
4629375000
4631250000
4633125000
4635000000
4636875000
4638750000
4640625000
4642500000
4644375000
4646250000
4648125000
4650000000
4651875000
4653750000
4655625000
4657500000
4659375000
4661250000
4663125000
4665000000
4666875000
4668750000
4670625000
4672500000
4674375000
4676250000
4678125000
4680000000
4681875000
4683750000
4685625000
4687500000
4689375000
4691250000
4693125000
4695000000
4696875000
4698750000
4700625000
4702500000
4704375000
4706250000
4708125000
4710000000
4711875000
4713750000
4715625000
4717500000
4719375000
4721250000
4723125000
4725000000
4726875000
4728750000
4730625000
4732500000
4734375000
4736250000
4738125000
4740000000
4741875000
4743750000
4745625000
4747500000
4749375000
4751250000
4753125000
4755000000
4756875000
4758750000
4760625000
4762500000
4764375000
4766250000
4768125000
4770000000
4771875000
4773750000
4775625000
4777500000
4779375000
4781250000
4783125000
4785000000
4786875000
4788750000
4790625000
4792500000
4794375000
4796250000
4798125000
4800000000
4801875000
4803750000
4805625000
4807500000
4809375000
4811250000
4813125000
4815000000
4816875000
4818750000
4820625000
4822500000
4824375000
4826250000
4828125000
4830000000
4831875000
4833750000
4835625000
4837500000
4839375000
4841250000
4843125000
4845000000
4846875000
4848750000
4850625000
4852500000
4854375000
4856250000
4858125000
4860000000
4861875000
4863750000
4865625000
4867500000
4869375000
4871250000
4873125000
4875000000
4876875000
4878750000
4880625000
4882500000
4884375000
4886250000
4888125000
4890000000
4891875000
4893750000
4895625000
4897500000
4899375000
4901250000
4903125000
4905000000
4906875000
4908750000
4910625000
4912500000
4914375000
4916250000
4918125000
4920000000
4921875000
4923750000
4925625000
4927500000
4929375000
4931250000
4933125000
4935000000
4936875000
4938750000
4940625000
4942500000
4944375000
4946250000
4948125000
4950000000
4951875000
4953750000
4955625000
4957500000
4959375000
4961250000
4963125000
4965000000
4966875000
4968750000
4970625000
4972500000
4974375000
4976250000
4978125000
4980000000
4981875000
4983750000
4985625000
4987500000
4989375000
4991250000
4993125000
4995000000
4996875000
4998750000
5000625000
5002500000
5004375000
5006250000
5008125000
5010000000
5011875000
5013750000
5015625000
5017500000
5019375000
5021250000
5023125000
5025000000
5026875000
5028750000
5030625000
5032500000
5034375000
5036250000
5038125000
5040000000
5041875000
5043750000
5045625000
5047500000
5049375000
5051250000
5053125000
5055000000
5056875000
5058750000
5060625000
5062500000
5064375000
5066250000
5068125000
5070000000
5071875000
5073750000
5075625000
5077500000
5079375000
5081250000
5083125000
5085000000
5086875000
5088750000
5090625000
5092500000
5094375000
5096250000
5098125000
5100000000
5101875000
5103750000
5105625000
5107500000
5109375000
5111250000
5113125000
5115000000
5116875000
5118750000
5120625000
5122500000
5124375000
5126250000
5128125000
5130000000
5131875000
5133750000
5135625000
5137500000
5139375000
5141250000
5143125000
5145000000
5146875000
5148750000
5150625000
5152500000
5154375000
5156250000
5158125000
5160000000
5161875000
5163750000
5165625000
5167500000
5169375000
5171250000
5173125000
5175000000
5176875000
5178750000
5180625000
5182500000
5184375000
5186250000
5188125000
5190000000
5191875000
5193750000
5195625000
5197500000
5199375000
5201250000
5203125000
5205000000
5206875000
5208750000
5210625000
5212500000
5214375000
5216250000
5218125000
5220000000
5221875000
5223750000
5225625000
5227500000
5229375000
5231250000
5233125000
5235000000
5236875000
5238750000
5240625000
5242500000
5244375000
5246250000
5248125000
5250000000
5251875000
5253750000
5255625000
5257500000
5259375000
5261250000
5263125000
5265000000
5266875000
5268750000
5270625000
5272500000
5274375000
5276250000
5278125000
5280000000
5281875000
5283750000
5285625000
5287500000
5289375000
5291250000
5293125000
5295000000
5296875000
5298750000
5300625000
5302500000
5304375000
5306250000
5308125000
5310000000
5311875000
5313750000
5315625000
5317500000
5319375000
5321250000
5323125000
5325000000
5326875000
5328750000
5330625000
5332500000
5334375000
5336250000
5338125000
5340000000
5341875000
5343750000
5345625000
5347500000
5349375000
5351250000
5353125000
5355000000
5356875000
5358750000
5360625000
5362500000
5364375000
5366250000
5368125000
5370000000
5371875000
5373750000
5375625000
5377500000
5379375000
5381250000
5383125000
5385000000
5386875000
5388750000
5390625000
5392500000
5394375000
5396250000
5398125000
5400000000
5401875000
5403750000
5405625000
5407500000
5409375000
5411250000
5413125000
5415000000
5416875000
5418750000
5420625000
5422500000
5424375000
5426250000
5428125000
5430000000
5431875000
5433750000
5435625000
5437500000
5439375000
5441250000
5443125000
5445000000
5446875000
5448750000
5450625000
5452500000
5454375000
5456250000
5458125000
5460000000
5461875000
5463750000
5465625000
5467500000
5469375000
5471250000
5473125000
5475000000
5476875000
5478750000
5480625000
5482500000
5484375000
5486250000
5488125000
5490000000
5491875000
5493750000
5495625000
5497500000
5499375000
5501250000
5503125000
5505000000
5506875000
5508750000
5510625000
5512500000
5514375000
5516250000
5518125000
5520000000
5521875000
5523750000
5525625000
5527500000
5529375000
5531250000
5533125000
5535000000
5536875000
5538750000
5540625000
5542500000
5544375000
5546250000
5548125000
5550000000
5551875000
5553750000
5555625000
5557500000
5559375000
5561250000
5563125000
5565000000
5566875000
5568750000
5570625000
5572500000
5574375000
5576250000
5578125000
5580000000
5581875000
5583750000
5585625000
5587500000
5589375000
5591250000
5593125000
5595000000
5596875000
5598750000
5600625000
5602500000
5604375000
5606250000
5608125000
5610000000
5611875000
5613750000
5615625000
5617500000
5619375000
5621250000
5623125000
5625000000
5626875000
5628750000
5630625000
5632500000
5634375000
5636250000
5638125000
5640000000
5641875000
5643750000
5645625000
5647500000
5649375000
5651250000
5653125000
5655000000
5656875000
5658750000
5660625000
5662500000
5664375000
5666250000
5668125000
5670000000
5671875000
5673750000
5675625000
5677500000
5679375000
5681250000
5683125000
5685000000
5686875000
5688750000
5690625000
5692500000
5694375000
5696250000
5698125000
5700000000
5701875000
5703750000
5705625000
5707500000
5709375000
5711250000
5713125000
5715000000
5716875000
5718750000
5720625000
5722500000
5724375000
5726250000
5728125000
5730000000
5731875000
5733750000
5735625000
5737500000
5739375000
5741250000
5743125000
5745000000
5746875000
5748750000
5750625000
5752500000
5754375000
5756250000
5758125000
5760000000
5761875000
5763750000
5765625000
5767500000
5769375000
5771250000
5773125000
5775000000
5776875000
5778750000
5780625000
5782500000
5784375000
5786250000
5788125000
5790000000
5791875000
5793750000
5795625000
5797500000
5799375000
5801250000
5803125000
5805000000
5806875000
5808750000
5810625000
5812500000
5814375000
5816250000
5818125000
5820000000
5821875000
5823750000
5825625000
5827500000
5829375000
5831250000
5833125000
5835000000
5836875000
5838750000
5840625000
5842500000
5844375000
5846250000
5848125000
5850000000
5851875000
5853750000
5855625000
5857500000
5859375000
5861250000
5863125000
5865000000
5866875000
5868750000
5870625000
5872500000
5874375000
5876250000
5878125000
5880000000
5881875000
5883750000
5885625000
5887500000
5889375000
5891250000
5893125000
5895000000
5896875000
5898750000
5900625000
5902500000
5904375000
5906250000
5908125000
5910000000
5911875000
5913750000
5915625000
5917500000
5919375000
5921250000
5923125000
5925000000
5926875000
5928750000
5930625000
5932500000
5934375000
5936250000
5938125000
5940000000
5941875000
5943750000
5945625000
5947500000
5949375000
5951250000
5953125000
5955000000
5956875000
5958750000
5960625000
5962500000
5964375000
5966250000
5968125000
5970000000
5971875000
5973750000
5975625000
5977500000
5979375000
5981250000
5983125000
5985000000
5986875000
5988750000
5990625000
5992500000
5994375000
5996250000
5998125000
6000000000
VAR_LIST_END
BEGIN
-0.21937603,-0.37134612
-0.22050916,-0.37023047
-0.22155422,-0.36917886
-0.2219554,-0.36796451
-0.22344668,-0.3667447
-0.22436048,-0.36549506
-0.22544621,-0.36401939
-0.22664663,-0.36243179
-0.22706915,-0.36079386
-0.22849093,-0.35900396
-0.22899793,-0.35716879
-0.22950129,-0.35588348
-0.22980598,-0.35407874
-0.23017947,-0.35282516
-0.23059244,-0.3514826
-0.23065673,-0.35043776
-0.23144995,-0.34894139
-0.23176809,-0.34779692
-0.23256877,-0.34660187
-0.23343006,-0.34542942
-0.23402546,-0.34403759
-0.23417088,-0.34287423
