CITIFILE A.01.01
!Agilent Technologies,N5242A,MY48420860,A.09.90.10
!Agilent N5242A: A.09.90.10
!Format: LogMag/Angle
!Date: Monday, March 31, 2014 20:28:21
NAME CH1_DATA
VAR Freq MAG 201
DATA S[1,1] DBANGLE
DATA S[2,1] DBANGLE
DATA S[1,2] DBANGLE
DATA S[2,2] DBANGLE
VAR_LIST_BEGIN
3000000000
3015000000
3030000000
3045000000
3060000000
3075000000
3090000000
3105000000
3120000000
3135000000
3150000000
3165000000
3180000000
3195000000
3210000000
3225000000
3240000000
3255000000
3270000000
3285000000
3300000000
3315000000
3330000000
3345000000
3360000000
3375000000
3390000000
3405000000
3420000000
3435000000
3450000000
3465000000
3480000000
3495000000
3510000000
3525000000
3540000000
3555000000
3570000000
3585000000
3600000000
3615000000
3630000000
3645000000
3660000000
3675000000
3690000000
3705000000
3720000000
3735000000
3750000000
3765000000
3780000000
3795000000
3810000000
3825000000
3840000000
3855000000
3870000000
3885000000
3900000000
3915000000
3930000000
3945000000
3960000000
3975000000
3990000000
4005000000
4020000000
4035000000
4050000000
4065000000
4080000000
4095000000
4110000000
4125000000
4140000000
4155000000
4170000000
4185000000
4200000000
4215000000
4230000000
4245000000
4260000000
4275000000
4290000000
4305000000
4320000000
4335000000
4350000000
4365000000
4380000000
4395000000
4410000000
4425000000
4440000000
4455000000
4470000000
4485000000
4500000000
4515000000
4530000000
4545000000
4560000000
4575000000
4590000000
4605000000
4620000000
4635000000
4650000000
4665000000
4680000000
4695000000
4710000000
4725000000
4740000000
4755000000
4770000000
4785000000
4800000000
4815000000
4830000000
4845000000
4860000000
4875000000
4890000000
4905000000
4920000000
4935000000
4950000000
4965000000
4980000000
4995000000
5010000000
5025000000
5040000000
5055000000
5070000000
5085000000
5100000000
5115000000
5130000000
5145000000
5160000000
5175000000
5190000000
5205000000
5220000000
5235000000
5250000000
5265000000
5280000000
5295000000
5310000000
5325000000
5340000000
5355000000
5370000000
5385000000
5400000000
5415000000
5430000000
5445000000
5460000000
5475000000
5490000000
5505000000
5520000000
5535000000
5550000000
5565000000
5580000000
5595000000
5610000000
5625000000
5640000000
5655000000
5670000000
5685000000
5700000000
5715000000
5730000000
5745000000
5760000000
5775000000
5790000000
5805000000
5820000000
5835000000
5850000000
5865000000
5880000000
5895000000
5910000000
5925000000
5940000000
5955000000
5970000000
5985000000
6000000000
VAR_LIST_END
BEGIN
-12.791565,84.159149
-12.548532,80.534988
-12.232743,75.24028
-11.976821,69.955177
-11.746827,64.659119
-11.562913,59.304565
-11.377266,54.053226
-11.258164,48.893871
-11.148715,43.459412
-11.069818,38.010281
-11.017148,32.353745
-10.968506,26.852619
-10.981575,21.036242
-10.981276,15.510668
-11.01998,9.764327
-11.067098,4.1193004
-11.167059,-1.7531471
-11.292217,-7.4421458
-11.477031,-13.118418
-11.667283,-19.042803
-11.865319,-24.944933
-12.053962,-31.084608
-12.306819,-36.759659
-12.6069,-42.543415
-12.92462,-47.929604
-13.265256,-53.477272
-13.644133,-58.730244
-14.11922,-64.215691
-14.565784,-69.670792
-15.053755,-74.979744
-15.494344,-80.214211
-15.953743,-85.452904
-16.423183,-90.296761
-16.927084,-94.511787
-17.583687,-98.142899
-18.146095,-102.04742
-18.70623,-105.5888
-19.001255,-109.02763
-19.33602,-112.00226
-19.586216,-114.31356
-19.823215,-116.55942
-19.943729,-118.98694
-19.936388,-122.33261
-19.967505,-125.58651
-19.848236,-129.42456
-19.798935,-133.35022
-19.601429,-137.61678
-19.353201,-141.90596
-18.983183,-146.36333
-18.65024,-151.19096
-18.376371,-156.50708
-18.041409,-162.3382
-17.641335,-168.28572
-17.316006,-174.25198
-16.997458,179.34888
-16.732151,172.56914
-16.371235,166.34619
-16.05241,160.42487
-15.723703,154.55151
-15.454835,147.93106
-15.190802,141.0294
-14.933815,134.09154
-14.675716,127.48441
-14.444737,121.05931
-14.229414,114.68415
-14.085595,108.42445
-13.954849,102.19832
-13.860964,96.289742
-13.786133,89.851738
-13.708549,83.651939
-13.645326,76.920456
-13.542234,70.853539
-13.60301,64.588913
-13.659082,58.93523
-13.768778,53.411289
-13.812038,48.028015
-13.967155,42.342373
-14.14912,36.143051
-14.331809,30.07165
-14.579562,24.357077
-14.854734,19.222757
-15.233739,14.284318
-15.552158,9.4672337
-15.958142,4.7831702
-16.291414,0.20723239
-16.708282,-4.6428609
-17.074574,-9.8272572
-17.653214,-14.762382
-18.284296,-19.863625
-19.087639,-24.061518
-19.99898,-28.442066
-21.148293,-30.326048
-22.617352,-32.828178
-23.83779,-30.600538
-25.160641,-27.064135
-25.825546,-18.821444
-26.336178,-10.274523
-26.126957,-2.2114806
-25.496155,4.4848599
-24.462917,9.6326065
-23.157452,11.472225
-22.053406,11.295413
-21.061314,7.0149918
-20.410521,4.6553855
-19.81571,0.83847314
-19.382666,-2.7571023
-18.874434,-8.6996689
-18.473005,-14.386767
-18.098898,-20.160631
-17.922186,-25.766022
-17.734665,-31.730324
-17.776045,-37.458908
-17.708609,-43.277882
-17.798834,-49.784714
-17.79887,-56.333256
-17.939119,-62.88134
-18.168495,-68.844879
-18.50733,-74.739357
-18.910307,-80.905006
-19.345358,-86.529701
-19.95071,-93.222374
-20.577501,-98.603203
-21.318523,-105.79209
-21.968018,-111.93761
-23.049599,-119.06058
-24.316349,-124.08293
-25.706446,-127.25098
-27.372095,-129.61081
-28.979103,-131.0376
-31.496176,-127.92142
-33.877838,-116.92976
-36.999912,-88.717751
-36.844364,-65.0354
-34.71508,-43.6982
-30.618439,-44.67186
-27.788641,-43.751324
-25.889675,-49.703121
-24.412184,-51.627697
-23.362482,-58.018085
-22.267263,-63.642803
-21.464523,-69.995277
-20.761127,-77.206886
-20.193823,-84.675537
-19.406811,-92.063309
-18.749468,-98.027199
-18.213017,-104.12135
-17.913832,-109.75335
-17.689793,-115.69729
-17.334093,-121.46477
-17.08309,-127.91181
-16.794949,-134.13707
-16.590322,-140.37926
-16.300287,-146.50154
-16.054178,-152.27295
-15.943138,-157.45277
-15.901076,-162.88036
-15.808078,-168.95729
-15.682692,-174.49013
-15.596265,-179.87085
-15.51353,175.79228
-15.500924,170.79613
-15.382536,166.36107
-15.397161,162.687
-15.507672,159.22061
-15.689981,155.71248
-15.791235,151.10442
-15.739179,146.89592
-15.733039,143.17809
-15.712575,140.36035
-15.745797,137.89853
-15.659527,135.76321
-15.647931,133.56972
-15.598379,131.33759
-15.610279,129.54811
-15.512527,127.14188
-15.284075,124.77853
-14.976669,122.4922
-14.700588,120.8749
-14.454915,119.50072
-14.298499,117.34224
-14.038641,114.90489
-13.80118,112.20166
-13.524425,109.28177
-13.339832,105.64599
-13.091927,101.5912
-12.73587,97.646805
-12.33608,94.506683
-12.055244,91.287781
-11.860044,87.405968
-11.702364,83.294189
-11.530552,79.111763
-11.348598,75.390327
-11.208492,71.090279
-11.007994,66.860985
-10.874274,62.549076
-10.721174,58.67207
-10.725465,54.444881
-10.701424,50.037792
-10.71986,45.271286
-10.686899,40.541439
-10.689608,37.358566
END
BEGIN
-51.351288,7.8943663
-50.521851,-53.430786
-50.286995,-147.07005
-50.595253,121.02238
-51.530338,25.146788
-51.294582,-65.909111
-51.381855,-154.78305
-51.451527,118.6115
-53.068851,31.569197
-53.641766,-58.673859
-53.665188,-142.7108
-52.864643,132.07506
-51.746494,43.348049
-51.584618,-51.62262
-51.143581,-152.81738
-51.597019,111.87843
-51.383854,17.1381
-52.063564,-74.190125
-52.602787,-171.43718
-54.500477,83.923279
-55.826591,-13.066269
-57.251457,-106.87862
-57.422009,-179.1297
-57.359688,101.33961
-55.84977,22.05822
-54.546474,-69.257622
-53.397907,-170.27249
-53.083286,95.999008
-51.797863,-1.0812321
-50.354324,-85.805
-49.568607,-177.23512
-49.239716,90.923454
-49.194542,-4.9862938
-49.273701,-103.41924
-50.495049,167.23991
-50.910488,74.989059
-51.492386,-16.486269
-51.476116,-112.64088
-51.641941,160.82365
-51.73864,74.315071
-52.027782,-8.9808302
-53.321762,-96.700348
-53.798214,172.7325
-53.696518,78.42205
-53.034397,-17.532658
-51.821522,-109.61462
-51.760212,165.86758
-51.773598,82.883629
-52.478092,2.152627
-51.805984,-90.836159
-50.553864,176.61694
-50.42754,81.436234
-50.36264,-11.283908
-50.499939,-105.00129
-50.066566,156.38802
-49.986279,63.070007
-51.013229,-37.627789
-51.176666,-133.43259
-52.847866,120.36448
-54.631577,31.622383
-56.147511,-44.093884
-56.306717,-110.59122
-53.998238,175.70427
-52.453407,85.221199
-50.714142,-10.95003
-49.520542,-108.29003
-48.649094,158.65901
-48.354794,64.46534
-48.452065,-31.696686
-48.702644,-128.26892
-49.67598,140.55807
-50.615456,51.195297
-51.257767,-42.760872
-50.825432,-125.53496
-51.423138,145.17036
-51.509052,59.5532
-51.401871,-36.042446
-49.924999,-128.81458
-49.934071,141.8987
-49.585094,50.559261
-49.800713,-37.741825
-48.849228,-126.70489
-48.684559,144.01985
-48.957199,53.871986
-48.969727,-39.842228
-48.553551,-132.21622
-48.457783,137.14839
-48.567116,47.615234
-49.096684,-42.09227
-48.471085,-133.44283
-48.371983,135.86804
-48.12299,39.586464
-49.011559,-49.088177
-49.295147,-142.1151
-48.746765,130.70195
-48.1978,40.198364
-47.706066,-48.898895
-48.038044,-137.18164
-47.702137,132.22668
-47.591724,43.117767
-47.336113,-48.311474
-47.64159,-145.37541
-47.667068,121.14734
-47.498672,28.087168
-46.98011,-58.680569
-47.945435,-149.07431
-48.2672,118.05913
-48.77515,23.180214
-47.940971,-68.376526
-47.718002,-159.65674
-47.933537,109.62498
-47.982414,17.759031
-48.043972,-70.42099
-47.652714,-161.52789
-47.783142,109.31605
-47.541512,20.762825
-47.272655,-67.782387
-47.44313,-158.27518
-47.690937,110.43885
-47.69426,19.729322
-46.640057,-69.392868
-46.605202,-163.77843
-46.676178,102.02803
-47.181767,6.1657953
-46.595455,-83.329399
-46.776543,-170.82941
-46.733471,98.523567
-47.265541,8.3715878
-47.583546,-79.242989
-48.090683,-168.80107
-48.602356,103.21202
-48.531212,13.950118
-48.447033,-69.133377
-48.029678,-155.82903
-47.34362,117.78202
-46.765739,29.308058
-46.282478,-62.584641
-46.075497,-157.15511
-45.934334,107.87341
-46.047565,15.612288
-46.261158,-78.298927
-46.393272,-169.51157
-46.086536,98.306007
-46.704163,2.963917
-46.77985,-90.025124
-47.573597,177.33359
-47.633286,90.723595
-48.72723,1.1618829
-50.736813,-82.339294
-51.08366,-168.2115
-50.198456,106.37709
-47.98093,11.873139
-47.289173,-78.038589
-46.824612,-172.59837
-46.680618,97.390579
-46.62072,2.038655
-47.075817,-87.932076
-46.724735,176.18011
-46.786964,84.488861
-47.109718,-10.177182
-47.544121,-101.35449
-47.102512,170.056
-47.451733,78.887146
-48.07383,-7.5571518
-49.412514,-93.553711
-48.691921,179.72859
-48.259342,91.711166
-48.043579,4.3058939
-48.183838,-80.113205
-47.952572,-165.43806
-47.673767,101.68549
-47.100204,7.0711842
-46.878365,-87.226189
-46.804371,178.52625
-46.952793,87.107613
-47.317272,-7.2332644
-47.447918,-94.572815
-47.748013,175.62234
-47.298401,86.632393
-46.8955,-9.3844919
-46.807758,-98.120522
-47.368061,172.18837
-48.210239,85.634956
-48.299416,-5.1856666
-48.231098,-96.13372
-47.462345,167.59669
-47.69355,74.282295
-48.660797,-16.396391
-48.878944,-100.34427
-49.79475,172.58171
-50.070339,85.281097
-50.278316,0.83529097
-50.21357,-89.760971
-48.325512,179.88928
-47.593102,82.242592
-46.19952,-4.8035502
-47.473339,-93.127258
-47.471008,175.64334
-48.257526,84.723114
-48.31913,-4.7488818
-49.213299,-58.529476
END
BEGIN
-51.564133,3.1943679
-51.133896,-55.934864
-50.220566,-144.48889
-50.50209,124.08342
-50.600842,28.966415
-51.106361,-66.691856
-50.899803,-158.91095
-51.040443,109.81718
-52.164547,22.780891
-53.764805,-60.977505
-54.012196,-140.83333
-53.028984,132.18175
-51.473358,40.593132
-50.61124,-52.313873
-50.060989,-147.87445
-49.670036,114.2459
-50.718937,13.170071
-51.24411,-81.348015
-52.565544,-172.26628
-53.269802,95.443527
-54.860115,2.1503055
-56.427837,-91.426224
-56.157299,-169.13618
-56.817764,115.58619
-54.796627,29.686913
-54.583473,-69.768211
-52.902077,-166.30615
-52.726604,102.49074
-51.736526,12.720586
-50.927765,-83.752892
-50.414997,-178.66669
-49.807846,86.347809
-49.423241,-9.7313156
-49.337013,-99.455345
-49.637028,167.7402
-50.181416,72.236404
-50.651554,-20.067848
-51.692398,-109.62826
-52.268509,165.25589
-52.208038,74.925568
-51.761028,-12.765804
-51.918877,-103.63567
-52.825138,166.76418
-52.692108,78.044014
-52.456459,-15.581998
-52.481201,-108.05498
-54.048023,162.42192
-54.617943,80.478157
-54.103836,-3.3238041
-52.335747,-96.932655
-50.717869,176.68642
-50.255421,83.973083
-50.188046,-8.4741735
-50.732079,-108.7588
-50.517509,156.37891
-50.983028,56.71019
-51.168396,-43.655796
-51.891396,-138.14931
-52.654778,130.15971
-53.758255,51.186092
-55.638149,-35.017689
-56.06498,-106.96995
-55.362347,166.67729
-52.667812,83.077477
-50.310879,-9.0906763
-49.446663,-101.44685
-48.929287,161.19977
-48.906132,61.477715
-48.50761,-36.217693
-48.610832,-128.76047
-48.96954,139.01289
-48.927296,49.997631
-50.29163,-44.014683
-50.547302,-135.71057
-51.40279,135.93524
-50.680584,53.13345
-51.08205,-29.672268
-50.885986,-120.02495
-50.357658,145.8324
-49.752079,56.424152
-48.800957,-34.857265
-49.166466,-124.408
-49.40852,140.42986
-50.657036,51.40786
-50.608627,-39.220142
-50.142555,-126.78053
-48.918198,140.01718
-48.522373,49.17181
-48.344696,-46.067215
-48.217289,-139.42822
-47.960281,127.52573
-47.876656,38.358231
-47.606544,-49.71822
-47.675442,-141.672
-48.36549,129.61357
-48.769928,40.077106
-48.777905,-44.722694
-47.829159,-134.61343
-47.602394,135.77098
-47.270435,41.958336
-47.807758,-50.43824
-47.990089,-142.20174
-47.889858,124.03272
-46.980324,32.145111
-46.649734,-62.33036
-47.003937,-153.20155
-47.706192,113.27654
-48.128651,23.784542
-48.094505,-67.29599
-47.632259,-157.33524
-47.749947,115.08515
-47.994736,23.292301
-48.343876,-67.558945
-48.051167,-160.52492
-47.930115,111.38869
-47.833344,21.303635
-47.809681,-69.107811
-47.580154,-159.66878
-47.85252,106.87574
-47.747936,16.64319
-47.549118,-71.587318
-47.029995,-160.48312
-46.604145,106.8731
-46.265568,10.976585
-46.25848,-82.603363
-46.48138,-174.36517
-46.924763,95.257256
-47.479088,4.7218094
-47.779919,-84.681351
-48.259296,-170.00581
-48.314247,107.03307
-48.742653,19.826471
-48.834396,-68.857483
-48.82793,-156.81564
-48.179302,114.89114
-47.492008,26.908693
-46.762447,-65.384911
-46.609272,-154.31137
-46.559986,112.18845
-46.856937,19.43384
-46.76897,-77.363373
-46.706688,-172.13165
-46.683987,92.48761
-47.585167,0.45167956
-48.013042,-92.549454
-48.801727,175.58673
-48.651962,86.136154
-49.304752,0.45417446
-49.411915,-84.491371
-49.810513,-177.01573
-49.516438,94.060417
-48.460781,6.4620466
-47.389622,-78.596062
-46.407768,-171.84258
-46.234447,94.868629
-46.198627,1.2187613
-46.39595,-92.895874
-46.307487,172.51534
-46.195728,81.230049
-47.030064,-4.8016953
-47.407063,-93.340515
-47.596375,177.5847
-47.188206,88.026871
-47.389164,-1.7106465
-47.95129,-91.145531
-48.179184,179.80719
-48.226147,92.475052
-47.630699,3.7717047
-47.130917,-85.179359
-46.249149,-173.6326
-47.103519,97.239502
-46.921906,6.3055215
-47.491741,-86.1838
-46.693867,-179.49834
-46.995285,88.666122
-47.420067,-0.71905434
-47.952457,-89.699333
-48.054466,-179.62186
-48.164581,88.666084
-47.412384,-0.56969869
-47.95145,-92.025414
-47.892166,174.37425
-48.295296,81.926025
-47.583843,-6.4440308
-47.407574,-95.311165
-47.510475,175.4657
-47.598389,79.943176
-48.587177,-8.9918118
-49.314171,-96.871162
-50.421974,176.45766
-49.283737,89.062859
-48.524628,-4.0826511
-47.277653,-94.256226
-47.330727,172.6666
-47.590256,83.326698
-47.717751,-10.291702
-48.342358,-105.36151
-47.936924,165.09273
-48.357746,79.782295
-47.972412,-4.3036299
-48.344578,-64.190033
END
BEGIN
-6.2895622,-107.57352
-6.323544,-108.70129
-6.3986053,-109.98937
-6.4794803,-111.75561
-6.6026192,-112.85665
-6.6874838,-114.23223
-6.8069267,-115.67816
-6.879477,-117.04951
-6.9617329,-118.8748
-7.077023,-119.96946
-7.1215677,-121.54233
-7.2748075,-122.35089
-7.2976751,-123.63923
-7.4830503,-124.74091
-7.5011091,-125.90798
-7.6128683,-127.23834
-7.6067538,-128.27615
-7.6365891,-129.55301
-7.6624832,-130.64912
-7.6963439,-131.92279
-7.8155408,-133.36349
-7.8583722,-134.61659
-7.9691176,-136.14011
-7.9524183,-137.24904
-8.0590763,-138.82378
-8.0896244,-139.66402
-8.2225494,-141.05544
-8.2849178,-141.47545
-8.3224192,-142.8333
-8.3920527,-143.56136
-8.3684626,-145.082
-8.4796858,-146.18979
-8.4429626,-147.19534
-8.5491228,-148.35544
-8.5214806,-148.93411
-8.5784349,-150.38954
-8.6194687,-151.20963
-8.6342163,-152.77692
-8.7248945,-153.83237
-8.6697836,-154.95178
-8.744729,-156.39558
-8.6647997,-157.12566
-8.7273827,-159.04663
-8.7459841,-159.69867
-8.8236017,-161.83113
-8.902154,-162.48752
-8.921833,-164.27145
-8.9519691,-165.17032
-8.9462652,-166.6275
-8.9672461,-167.53331
-8.9966125,-168.32622
-9.0116673,-169.52341
-9.0477314,-170.50517
-9.0172529,-172.7049
-9.0585155,-173.83401
-8.9572573,-176.02454
-9.0617905,-176.65536
-8.9611998,-178.24078
-9.159893,-179.22266
-9.1078663,179.09735
-9.2941093,177.10065
-9.2738333,175.54059
-9.2875605,173.60632
-9.2935534,172.60085
-9.1972265,171.42941
-9.3520479,169.88957
-9.3317366,168.59215
-9.5655308,165.77812
-9.5581493,164.44948
-9.6368313,161.57532
-9.6485424,160.79279
-9.698988,158.99387
-9.8667316,158.39478
-9.9785366,156.68587
-10.189615,155.03331
-10.223538,152.89186
-10.311694,150.7963
-10.244009,149.44167
-10.313912,148.028
-10.370377,147.44673
-10.510044,145.297
-10.717046,143.3963
-10.746841,140.314
-10.921519,137.70956
-10.812299,136.08987
-10.991126,133.8644
-11.045481,133.83418
-11.340129,130.81339
-11.576217,129.86519
-11.755186,125.41136
-11.949648,123.82027
-11.984288,120.82139
-12.20605,120.06023
-12.392257,119.06073
-12.72369,117.37379
-13.171489,116.00797
-13.337415,112.43793
-13.739646,110.59196
-13.53746,108.01678
-13.936421,107.14291
-13.834365,105.89557
-14.536052,104.1584
-14.680131,101.48982
-15.372725,96.978821
-15.41155,93.330246
-15.696435,89.298592
-15.813999,87.580315
-16.14809,85.668938
-16.934347,83.311874
-17.444004,81.295013
-18.336212,74.675232
-18.604536,72.722374
-18.938457,65.271042
-19.337988,66.5103
-19.675482,61.587242
-21.092409,62.914902
-21.597605,58.440956
-23.0984,52.006672
-23.088636,46.639835
-23.596519,36.668339
-23.595198,37.500538
-23.957445,30.153345
-25.307375,29.337072
-25.988684,17.2428
-26.904566,3.3858411
-26.715443,-11.274276
-26.310408,-22.113768
-26.495785,-25.141615
-26.050072,-30.089108
-27.367504,-39.521229
-26.386156,-49.996845
-26.548004,-68.081352
-24.40509,-70.392067
-24.023554,-80.85495
-23.101469,-71.432571
-22.958231,-79.321922
-23.131426,-77.938644
-22.579485,-88.778198
-22.156012,-95.395676
-21.002884,-98.577179
-20.025309,-101.39149
-19.548058,-97.223106
-18.806585,-100.22464
-19.25469,-100.19348
-18.557358,-106.31001
-18.679522,-110.61063
-17.345778,-114.46536
-16.994204,-117.02119
-16.007124,-114.72689
-15.920125,-116.7067
-15.900161,-115.19848
-15.807573,-119.90293
-15.776793,-122.5042
-14.96777,-127.16856
-14.546866,-129.5643
-13.782456,-129.67786
-13.702445,-130.06241
-13.5261,-129.27538
-13.611051,-132.20329
-13.498935,-134.80315
-13.050766,-139.66554
-12.704669,-141.86235
-11.943647,-143.03868
-11.942302,-143.41263
-11.493871,-142.4296
-11.807914,-145.87624
-11.615642,-147.07742
-11.544083,-152.82532
-11.154773,-153.89774
-10.579364,-156.4382
